CITIFILE A.01.01
#Momentum: B.11.40.482 (*) built: Dec  2 2014 
#Momentum Date and Time: Mon Sep 05 17:52:03 2016

NAME PortSet1/TwoP0_Dsolver_data/first_odd_mode_is_1/most_even_mode_is_1/PMLG4/LS0

CONSTANT NBR_OF_PORTS 2

VAR freq MAG 15

DATA GAMMA_1[1] RI
DATA Z0_1[1,1] RI
DATA LAMBADAI_1[1,1] RI
DATA Zcir_1[1,1] RI
DATA Ycir_1[1,1] RI

VAR_LIST_BEGIN
	 1000000000
	 1010000000
	 1020000000
	 1030000000
	 1333510755
	 1630396806
	 1927282857
	 2224168908
	 2769945505
	 3581071441
	 4561959382
	 5691367749
	 7067844263
	 8828025572
	 1e+010
VAR_LIST_END

BEGIN
	 0.2717146623,	 35.62246682
	 0.2730821315,	 35.97733808
	 0.2744428569,	 36.33220313
	 0.2757969379,	 36.68706208
	 0.3141557841,	 47.45495529
	 0.3476427607,	 57.98437958
	 0.3782040521,	 68.51156056
	 0.4064971813,	 79.03724172
	 0.4539810564,	 98.38473199
	 0.5166461588,	 127.1370824
	 0.5836374077,	 161.9099906
	 0.6524679271,	 201.9581245
	 0.7278244629,	 250.7890582
	 0.8144161793,	 313.2773744
	 0.8674891398,	 354.9168974
END
BEGIN
	 53.67557879204243 ,	 -0.40941416669888925 
	 53.673524238585379 ,	 -0.40740031183063946 
	 53.671499880576526 ,	 -0.40541597664183632 
	 53.669504983935518 ,	 -0.40346044668169379 
	 53.620051816418155 ,	 -0.35496499902837508 
	 53.585696281523425 ,	 -0.32126496753487943 
	 53.559588149354198 ,	 -0.29565750198781376 
	 53.538877392997854 ,	 -0.2753473901552278 
	 53.509874078739188 ,	 -0.24690077584223022 
	 53.479769951357113 ,	 -0.21730777342661875 
	 53.454939870718611 ,	 -0.19266437219146906 
	 53.435240343289387 ,	 -0.17259997023674811 
	 53.418961409121231 ,	 -0.15498380733055389 
	 53.406015544579766 ,	 -0.1387765517084148 
	 53.400895426836705 ,	 -0.13045053802106699 
END
BEGIN
	 0.2717146623,	 35.62246682
	 0.2730821315,	 35.97733808
	 0.2744428569,	 36.33220313
	 0.2757969379,	 36.68706208
	 0.3141557841,	 47.45495529
	 0.3476427607,	 57.98437958
	 0.3782040521,	 68.51156056
	 0.4064971813,	 79.03724172
	 0.4539810564,	 98.38473199
	 0.5166461588,	 127.1370824
	 0.5836374077,	 161.9099906
	 0.6524679271,	 201.9581245
	 0.7278244629,	 250.7890582
	 0.8144161793,	 313.2773744
	 0.8674891398,	 354.9168974
END
BEGIN
	 0.07742615658,	 8.077276736e-010
	 0.07781283849,	 8.076668303e-010
	 0.07819761295,	 8.076068927e-010
	 0.07858050805,	 8.075478389e-010
	 0.08942708257,	 8.060885376e-010
	 0.09889574226,	 8.050826544e-010
	 0.1075368851,	 8.04325615e-010
	 0.1155364814,	 8.037320504e-010
	 0.1289615602,	 8.02917027e-010
	 0.1466778337,	 8.021048065e-010
	 0.1656160342,	 8.014823077e-010
	 0.1850733389,	 8.010459318e-010
	 0.2063753733,	 8.007609759e-010
	 0.2308554994,	 8.006490553e-010
	 0.2458623072,	 8.006857997e-010
END
BEGIN
	 1.29698470144413e-005 ,	 3.97922058157728e-008 
	 1.329231639945e-005 ,	 3.97922320830009e-008 
	 1.36194853505384e-005 ,	 3.97922585278488e-008 
	 1.39513744367614e-005 ,	 3.97922851495374e-008 
	 2.63705335774834e-005 ,	 3.97931735866084e-008 
	 4.32377052898595e-005 ,	 3.97941818687951e-008 
	 6.51909725980913e-005 ,	 3.97953137135839e-008 
	 9.25914589702825e-005 ,	 3.97965578131903e-008 
	 0.00015821175993475 ,	 3.97991056549868e-008 
	 0.000295233834845619 ,	 3.98034288319115e-008 
	 0.000529451918417129 ,	 3.98093556609523e-008 
	 0.000899055802435732 ,	 3.98169210234287e-008 
	 0.00150287826299269 ,	 3.98269394443806e-008 
	 0.00253195114862215 ,	 3.98406147306034e-008 
	 0.00338153346170239 ,	 3.98500525082533e-008 
END
CITIFILE A.01.01
NAME PortSet2/TwoP0_Dsolver_data/first_odd_mode_is_1/most_even_mode_is_1/PMLG4/LS0

VAR freq MAG 15

DATA GAMMA_1[1] RI
DATA Z0_1[1,1] RI
DATA LAMBADAI_1[1,1] RI
DATA Zcir_1[1,1] RI
DATA Ycir_1[1,1] RI

VAR_LIST_BEGIN
	 1000000000
	 1010000000
	 1020000000
	 1030000000
	 1333510755
	 1630396806
	 1927282857
	 2224168908
	 2769945505
	 3581071441
	 4561959382
	 5691367749
	 7067844263
	 8828025572
	 1e+010
VAR_LIST_END

BEGIN
	 0.2717146623,	 35.62246682
	 0.2730821315,	 35.97733808
	 0.2744428569,	 36.33220313
	 0.2757969379,	 36.68706208
	 0.3141557841,	 47.45495529
	 0.3476427607,	 57.98437958
	 0.3782040521,	 68.51156056
	 0.4064971813,	 79.03724172
	 0.4539810564,	 98.38473199
	 0.5166461588,	 127.1370824
	 0.5836374077,	 161.9099906
	 0.6524679271,	 201.9581245
	 0.7278244629,	 250.7890582
	 0.8144161793,	 313.2773744
	 0.8674891398,	 354.9168974
END
BEGIN
	 53.67557879204243 ,	 -0.40941416669888925 
	 53.673524238585379 ,	 -0.40740031183063946 
	 53.671499880576526 ,	 -0.40541597664183632 
	 53.669504983935518 ,	 -0.40346044668169379 
	 53.620051816418155 ,	 -0.35496499902837508 
	 53.585696281523425 ,	 -0.32126496753487943 
	 53.559588149354198 ,	 -0.29565750198781376 
	 53.538877392997854 ,	 -0.2753473901552278 
	 53.509874078739188 ,	 -0.24690077584223022 
	 53.479769951357113 ,	 -0.21730777342661875 
	 53.454939870718611 ,	 -0.19266437219146906 
	 53.435240343289387 ,	 -0.17259997023674811 
	 53.418961409121231 ,	 -0.15498380733055389 
	 53.406015544579766 ,	 -0.1387765517084148 
	 53.400895426836705 ,	 -0.13045053802106699 
END
BEGIN
	 0.2717146623,	 35.62246682
	 0.2730821315,	 35.97733808
	 0.2744428569,	 36.33220313
	 0.2757969379,	 36.68706208
	 0.3141557841,	 47.45495529
	 0.3476427607,	 57.98437958
	 0.3782040521,	 68.51156056
	 0.4064971813,	 79.03724172
	 0.4539810564,	 98.38473199
	 0.5166461588,	 127.1370824
	 0.5836374077,	 161.9099906
	 0.6524679271,	 201.9581245
	 0.7278244629,	 250.7890582
	 0.8144161793,	 313.2773744
	 0.8674891398,	 354.9168974
END
BEGIN
	 0.07742615658,	 8.077276736e-010
	 0.07781283849,	 8.076668303e-010
	 0.07819761295,	 8.076068927e-010
	 0.07858050805,	 8.075478389e-010
	 0.08942708257,	 8.060885376e-010
	 0.09889574226,	 8.050826544e-010
	 0.1075368851,	 8.04325615e-010
	 0.1155364814,	 8.037320504e-010
	 0.1289615602,	 8.02917027e-010
	 0.1466778337,	 8.021048065e-010
	 0.1656160342,	 8.014823077e-010
	 0.1850733389,	 8.010459318e-010
	 0.2063753733,	 8.007609759e-010
	 0.2308554994,	 8.006490553e-010
	 0.2458623072,	 8.006857997e-010
END
BEGIN
	 1.29698470144413e-005 ,	 3.97922058157728e-008 
	 1.329231639945e-005 ,	 3.97922320830009e-008 
	 1.36194853505384e-005 ,	 3.97922585278488e-008 
	 1.39513744367614e-005 ,	 3.97922851495374e-008 
	 2.63705335774834e-005 ,	 3.97931735866084e-008 
	 4.32377052898595e-005 ,	 3.97941818687951e-008 
	 6.51909725980913e-005 ,	 3.97953137135839e-008 
	 9.25914589702825e-005 ,	 3.97965578131903e-008 
	 0.00015821175993475 ,	 3.97991056549868e-008 
	 0.000295233834845619 ,	 3.98034288319115e-008 
	 0.000529451918417129 ,	 3.98093556609523e-008 
	 0.000899055802435732 ,	 3.98169210234287e-008 
	 0.00150287826299269 ,	 3.98269394443806e-008 
	 0.00253195114862215 ,	 3.98406147306034e-008 
	 0.00338153346170239 ,	 3.98500525082533e-008 
END
