CITIFILE A.01.01
#Momentum: B.11.40.482 (*) built: Dec  2 2014 
#Momentum Date and Time: Mon Sep 05 17:52:05 2016

NAME Momentum.SP

#  mode: MW    project: proj

CONSTANT NBR_OF_PORTS 2

CONSTANT NORMALIZATION 1

VAR freq MAG 46

DATA S[1,1] RI
DATA S[1,2] RI
DATA S[2,1] RI
DATA S[2,2] RI
DATA S_50[1,1] RI
DATA S_50[1,2] RI
DATA S_50[2,1] RI
DATA S_50[2,2] RI
DATA S_Z0[1,1] RI
DATA S_Z0[1,2] RI
DATA S_Z0[2,1] RI
DATA S_Z0[2,2] RI
DATA GAMMA[1] RI
DATA GAMMA[2] RI
DATA Z0[1] RI
DATA Z0[2] RI
DATA PORTZ[1] RI
DATA PORTZ[2] RI

VAR_LIST_BEGIN
	 1000000000
	 1200000000
	 1400000000
	 1600000000
	 1800000000
	 2000000000
	 2200000000
	 2400000000
	 2600000000
	 2800000000
	 3000000000
	 3200000000
	 3400000000
	 3600000000
	 3800000000
	 4000000000
	 4200000000
	 4400000000
	 4600000000
	 4800000000
	 5000000000
	 5200000000
	 5400000000
	 5600000000
	 5800000000
	 6000000000
	 6200000000
	 6400000000
	 6600000000
	 6800000000
	 7000000000
	 7200000000
	 7400000000
	 7600000000
	 7800000000
	 8000000000
	 8200000000
	 8400000000
	 8600000000
	 8800000000
	 9000000000
	 9200000000
	 9400000000
	 9600000000
	 9800000000
	 1e+010
VAR_LIST_END

BEGIN
	 0.00668798455,	 0.017094182
	 0.0087943174,	 0.0198272265
	 0.0111536699,	 0.0223087416
	 0.0137425383,	 0.0245165066
	 0.016533261,	 0.0264295662
	 0.0194956039,	 0.0280294871
	 0.0225969592,	 0.0293007426
	 0.0258028187,	 0.0302310744
	 0.0290777432,	 0.0308118349
	 0.0323850266,	 0.0310380505
	 0.035687607,	 0.0309085797
	 0.0389486376,	 0.0304261331
	 0.0421314843,	 0.0295972633
	 0.0452004352,	 0.0284323857
	 0.0481210994,	 0.0269455564
	 0.0508606631,	 0.0251544169
	 0.053388436,	 0.0230799697
	 0.055676088,	 0.0207463225
	 0.0576980336,	 0.0181804717
	 0.0594316789,	 0.0154120048
	 0.0608577663,	 0.0124726275
	 0.0619605959,	 0.00939601156
	 0.0627280823,	 0.00621723698
	 0.0631519602,	 0.0029723654
	 0.0632286217,	-0.000300933032
	 0.0629574483,	-0.00356631928
	 0.0623439987,	-0.00678782215
	 0.0613927107,	-0.00992814387
	 0.0601167559,	-0.0129528744
	 0.058531448,	-0.0158286657
	 0.0566556827,	-0.0185243468
	 0.0545112135,	-0.021010644
	 0.0521230969,	-0.0232613753
	 0.0495187224,	-0.0252530832
	 0.0467282249,	-0.0269657721
	 0.0437826998,	-0.0283825757
	 0.0407155214,	-0.0294907563
	 0.0375605876,	-0.0302807878
	 0.0343525653,	-0.0307469636
	 0.0311261551,	-0.0308874706
	 0.0279159651,	-0.0307041329
	 0.0247559533,	-0.0302025294
	 0.021679042,	-0.0293916681
	 0.0187167926,	-0.0282839634
	 0.0158990132,	-0.0268949366
	 0.0132577842,	-0.0252416285
END
BEGIN
	 0.963238074,	-0.260408622
	 0.947962021,	-0.310605265
	 0.930089674,	-0.359895513
	 0.909671059,	-0.408148162
	 0.886764847,	-0.455233637
	 0.861436829,	-0.50102539
	 0.833759826,	-0.545400408
	 0.803813311,	-0.588239752
	 0.771682487,	-0.629429054
	 0.737458727,	-0.668858769
	 0.701238772,	-0.706424525
	 0.663124156,	-0.742027377
	 0.623221426,	-0.775573982
	 0.581641308,	-0.806976879
	 0.538498514,	-0.836154529
	 0.493911512,	-0.863031521
	 0.448002024,	-0.88753864
	 0.400894807,	-0.909612953
	 0.35271736,	-0.929197909
	 0.30359959,	-0.94624341
	 0.253673607,	-0.96070584
	 0.203073314,	-0.972548187
	 0.151934065,	-0.981739985
	 0.100392669,	-0.988257564
	 0.0485884282,	-0.992083757
	-0.00334087374,	-0.993208838
	-0.0552559303,	-0.991629246
	-0.107017798,	-0.987349351
	-0.158487043,	-0.98037993
	-0.209525093,	-0.970738816
	-0.259994208,	-0.958450822
	-0.309757871,	-0.943547929
	-0.358681227,	-0.926068964
	-0.406631093,	-0.906059904
	-0.453476807,	-0.883573292
	-0.499090347,	-0.85866885
	-0.543346795,	-0.831412337
	-0.58612445,	-0.80187657
	-0.627305204,	-0.770140711
	-0.666775403,	-0.736289828
	-0.704425342,	-0.700415368
	-0.740150343,	-0.662614337
	-0.773850644,	-0.622989484
	-0.805431973,	-0.581648788
	-0.834805603,	-0.53870553
	-0.861890414,	-0.49427817
END
BEGIN
	 0.963238074,	-0.260408622
	 0.947962021,	-0.310605265
	 0.930089674,	-0.359895513
	 0.909671059,	-0.408148162
	 0.886764847,	-0.455233637
	 0.861436829,	-0.50102539
	 0.833759826,	-0.545400408
	 0.803813311,	-0.588239752
	 0.771682487,	-0.629429054
	 0.737458727,	-0.668858769
	 0.701238772,	-0.706424525
	 0.663124156,	-0.742027377
	 0.623221426,	-0.775573982
	 0.581641308,	-0.806976879
	 0.538498514,	-0.836154529
	 0.493911512,	-0.863031521
	 0.448002024,	-0.88753864
	 0.400894807,	-0.909612953
	 0.35271736,	-0.929197909
	 0.30359959,	-0.94624341
	 0.253673607,	-0.96070584
	 0.203073314,	-0.972548187
	 0.151934065,	-0.981739985
	 0.100392669,	-0.988257564
	 0.0485884282,	-0.992083757
	-0.00334087374,	-0.993208838
	-0.0552559303,	-0.991629246
	-0.107017798,	-0.987349351
	-0.158487043,	-0.98037993
	-0.209525093,	-0.970738816
	-0.259994208,	-0.958450822
	-0.309757871,	-0.943547929
	-0.358681227,	-0.926068964
	-0.406631093,	-0.906059904
	-0.453476807,	-0.883573292
	-0.499090347,	-0.85866885
	-0.543346795,	-0.831412337
	-0.58612445,	-0.80187657
	-0.627305204,	-0.770140711
	-0.666775403,	-0.736289828
	-0.704425342,	-0.700415368
	-0.740150343,	-0.662614337
	-0.773850644,	-0.622989484
	-0.805431973,	-0.581648788
	-0.834805603,	-0.53870553
	-0.861890414,	-0.49427817
END
BEGIN
	 0.00668799382,	 0.0170941795
	 0.0087943311,	 0.019827222
	 0.0111536828,	 0.0223087366
	 0.0137425526,	 0.0245165002
	 0.0165332764,	 0.0264295583
	 0.0194956247,	 0.0280294751
	 0.0225969919,	 0.0293007214
	 0.0258028507,	 0.0302310512
	 0.0290777621,	 0.0308118199
	 0.0323850427,	 0.0310380363
	 0.0356876224,	 0.0309085647
	 0.0389486639,	 0.0304261042
	 0.042131492,	 0.0295972544
	 0.0452004382,	 0.0284323823
	 0.0481210998,	 0.0269455567
	 0.0508606609,	 0.0251544218
	 0.0533884314,	 0.0230799804
	 0.0556760796,	 0.0207463431
	 0.0576980175,	 0.0181805155
	 0.0594316789,	 0.0154120069
	 0.0608577576,	 0.0124726621
	 0.0619605832,	 0.00939607507
	 0.0627280735,	 0.00621729658
	 0.0631519518,	 0.0029724498
	 0.0632286192,	-0.000300878004
	 0.0629574485,	-0.00356622424
	 0.0623440027,	-0.00678774463
	 0.0613927176,	-0.00992807553
	 0.0601167705,	-0.0129527793
	 0.0585314639,	-0.0158285877
	 0.0566556955,	-0.0185242964
	 0.0545112261,	-0.0210106027
	 0.0521231175,	-0.0232613179
	 0.0495187443,	-0.0252530302
	 0.0467282249,	-0.0269657683
	 0.0437827012,	-0.0283825696
	 0.0407155134,	-0.0294907649
	 0.0375606026,	-0.030280764
	 0.0343525411,	-0.0307469911
	 0.031126125,	-0.0308875009
	 0.0279159147,	-0.0307041804
	 0.0247558979,	-0.0302025769
	 0.0216789737,	-0.0293917213
	 0.0187167073,	-0.028284024
	 0.0158989325,	-0.0268949881
	 0.0132576863,	-0.025241685
END
BEGIN
	 0.00668798455,	 0.017094182
	 0.0087943174,	 0.0198272265
	 0.0111536699,	 0.0223087416
	 0.0137425383,	 0.0245165066
	 0.016533261,	 0.0264295662
	 0.0194956039,	 0.0280294871
	 0.0225969592,	 0.0293007426
	 0.0258028187,	 0.0302310744
	 0.0290777432,	 0.0308118349
	 0.0323850266,	 0.0310380505
	 0.035687607,	 0.0309085797
	 0.0389486376,	 0.0304261331
	 0.0421314843,	 0.0295972633
	 0.0452004352,	 0.0284323857
	 0.0481210994,	 0.0269455564
	 0.0508606631,	 0.0251544169
	 0.053388436,	 0.0230799697
	 0.055676088,	 0.0207463225
	 0.0576980336,	 0.0181804717
	 0.0594316789,	 0.0154120048
	 0.0608577663,	 0.0124726275
	 0.0619605959,	 0.00939601156
	 0.0627280823,	 0.00621723698
	 0.0631519602,	 0.0029723654
	 0.0632286217,	-0.000300933032
	 0.0629574483,	-0.00356631928
	 0.0623439987,	-0.00678782215
	 0.0613927107,	-0.00992814387
	 0.0601167559,	-0.0129528744
	 0.058531448,	-0.0158286657
	 0.0566556827,	-0.0185243468
	 0.0545112135,	-0.021010644
	 0.0521230969,	-0.0232613753
	 0.0495187224,	-0.0252530832
	 0.0467282249,	-0.0269657721
	 0.0437826998,	-0.0283825757
	 0.0407155214,	-0.0294907563
	 0.0375605876,	-0.0302807878
	 0.0343525653,	-0.0307469636
	 0.0311261551,	-0.0308874706
	 0.0279159651,	-0.0307041329
	 0.0247559533,	-0.0302025294
	 0.021679042,	-0.0293916681
	 0.0187167926,	-0.0282839634
	 0.0158990132,	-0.0268949366
	 0.0132577842,	-0.0252416285
END
BEGIN
	 0.963238074,	-0.260408622
	 0.947962021,	-0.310605265
	 0.930089674,	-0.359895513
	 0.909671059,	-0.408148162
	 0.886764847,	-0.455233637
	 0.861436829,	-0.50102539
	 0.833759826,	-0.545400408
	 0.803813311,	-0.588239752
	 0.771682487,	-0.629429054
	 0.737458727,	-0.668858769
	 0.701238772,	-0.706424525
	 0.663124156,	-0.742027377
	 0.623221426,	-0.775573982
	 0.581641308,	-0.806976879
	 0.538498514,	-0.836154529
	 0.493911512,	-0.863031521
	 0.448002024,	-0.88753864
	 0.400894807,	-0.909612953
	 0.35271736,	-0.929197909
	 0.30359959,	-0.94624341
	 0.253673607,	-0.96070584
	 0.203073314,	-0.972548187
	 0.151934065,	-0.981739985
	 0.100392669,	-0.988257564
	 0.0485884282,	-0.992083757
	-0.00334087374,	-0.993208838
	-0.0552559303,	-0.991629246
	-0.107017798,	-0.987349351
	-0.158487043,	-0.98037993
	-0.209525093,	-0.970738816
	-0.259994208,	-0.958450822
	-0.309757871,	-0.943547929
	-0.358681227,	-0.926068964
	-0.406631093,	-0.906059904
	-0.453476807,	-0.883573292
	-0.499090347,	-0.85866885
	-0.543346795,	-0.831412337
	-0.58612445,	-0.80187657
	-0.627305204,	-0.770140711
	-0.666775403,	-0.736289828
	-0.704425342,	-0.700415368
	-0.740150343,	-0.662614337
	-0.773850644,	-0.622989484
	-0.805431973,	-0.581648788
	-0.834805603,	-0.53870553
	-0.861890414,	-0.49427817
END
BEGIN
	 0.963238074,	-0.260408622
	 0.947962021,	-0.310605265
	 0.930089674,	-0.359895513
	 0.909671059,	-0.408148162
	 0.886764847,	-0.455233637
	 0.861436829,	-0.50102539
	 0.833759826,	-0.545400408
	 0.803813311,	-0.588239752
	 0.771682487,	-0.629429054
	 0.737458727,	-0.668858769
	 0.701238772,	-0.706424525
	 0.663124156,	-0.742027377
	 0.623221426,	-0.775573982
	 0.581641308,	-0.806976879
	 0.538498514,	-0.836154529
	 0.493911512,	-0.863031521
	 0.448002024,	-0.88753864
	 0.400894807,	-0.909612953
	 0.35271736,	-0.929197909
	 0.30359959,	-0.94624341
	 0.253673607,	-0.96070584
	 0.203073314,	-0.972548187
	 0.151934065,	-0.981739985
	 0.100392669,	-0.988257564
	 0.0485884282,	-0.992083757
	-0.00334087374,	-0.993208838
	-0.0552559303,	-0.991629246
	-0.107017798,	-0.987349351
	-0.158487043,	-0.98037993
	-0.209525093,	-0.970738816
	-0.259994208,	-0.958450822
	-0.309757871,	-0.943547929
	-0.358681227,	-0.926068964
	-0.406631093,	-0.906059904
	-0.453476807,	-0.883573292
	-0.499090347,	-0.85866885
	-0.543346795,	-0.831412337
	-0.58612445,	-0.80187657
	-0.627305204,	-0.770140711
	-0.666775403,	-0.736289828
	-0.704425342,	-0.700415368
	-0.740150343,	-0.662614337
	-0.773850644,	-0.622989484
	-0.805431973,	-0.581648788
	-0.834805603,	-0.53870553
	-0.861890414,	-0.49427817
END
BEGIN
	 0.00668799382,	 0.0170941795
	 0.0087943311,	 0.019827222
	 0.0111536828,	 0.0223087366
	 0.0137425526,	 0.0245165002
	 0.0165332764,	 0.0264295583
	 0.0194956247,	 0.0280294751
	 0.0225969919,	 0.0293007214
	 0.0258028507,	 0.0302310512
	 0.0290777621,	 0.0308118199
	 0.0323850427,	 0.0310380363
	 0.0356876224,	 0.0309085647
	 0.0389486639,	 0.0304261042
	 0.042131492,	 0.0295972544
	 0.0452004382,	 0.0284323823
	 0.0481210998,	 0.0269455567
	 0.0508606609,	 0.0251544218
	 0.0533884314,	 0.0230799804
	 0.0556760796,	 0.0207463431
	 0.0576980175,	 0.0181805155
	 0.0594316789,	 0.0154120069
	 0.0608577576,	 0.0124726621
	 0.0619605832,	 0.00939607507
	 0.0627280735,	 0.00621729658
	 0.0631519518,	 0.0029724498
	 0.0632286192,	-0.000300878004
	 0.0629574485,	-0.00356622424
	 0.0623440027,	-0.00678774463
	 0.0613927176,	-0.00992807553
	 0.0601167705,	-0.0129527793
	 0.0585314639,	-0.0158285877
	 0.0566556955,	-0.0185242964
	 0.0545112261,	-0.0210106027
	 0.0521231175,	-0.0232613179
	 0.0495187443,	-0.0252530302
	 0.0467282249,	-0.0269657683
	 0.0437827012,	-0.0283825696
	 0.0407155134,	-0.0294907649
	 0.0375606026,	-0.030280764
	 0.0343525411,	-0.0307469911
	 0.031126125,	-0.0308875009
	 0.0279159147,	-0.0307041804
	 0.0247558979,	-0.0302025769
	 0.0216789737,	-0.0293917213
	 0.0187167073,	-0.028284024
	 0.0158989325,	-0.0268949881
	 0.0132576863,	-0.025241685
END
BEGIN
	 -0.000107794226 ,	 -0.00778404491 
	 -0.000131168742 ,	 -0.00713593276 
	 -0.000154917339 ,	 -0.00663752184 
	 -0.000180385227 ,	 -0.0062416973 
	 -0.000209137732 ,	 -0.0059203556 
	 -0.000243103094 ,	 -0.00565660496 
	 -0.000282897065 ,	 -0.00543681924 
	 -0.000329237742 ,	 -0.00525145241 
	 -0.000384143618 ,	 -0.00509546445 
	 -0.000450385441 ,	 -0.00496515014 
	 -0.00052368609 ,	 -0.0048502217 
	 -0.000608776413 ,	 -0.00475151737 
	 -0.000708001463 ,	 -0.00466670459 
	 -0.000822868693 ,	 -0.00459271918 
	 -0.000944558714 ,	 -0.00452001972 
	 -0.00107974371 ,	 -0.00445080959 
	 -0.00122921127 ,	 -0.00438265382 
	 -0.00139356253 ,	 -0.00431302071 
	 -0.00157141101 ,	 -0.00423858744 
	 -0.00175456609 ,	 -0.00415419316 
	 -0.00194751645 ,	 -0.00406002974 
	 -0.00214898534 ,	 -0.00395386292 
	 -0.00235740748 ,	 -0.0038336199 
	 -0.00257086029 ,	 -0.00369748484 
	 -0.00278263347 ,	 -0.00354281117 
	 -0.00298911469 ,	 -0.00336940279 
	 -0.00318797278 ,	 -0.00317768107 
	 -0.00337924251 ,	 -0.00296620947 
	 -0.00355785741 ,	 -0.00273583724 
	 -0.00372019748 ,	 -0.00248745251 
	 -0.00386252078 ,	 -0.00222275411 
	 -0.00397865396 ,	 -0.00194455892 
	 -0.0040657828 ,	 -0.0016560291 
	 -0.00412248515 ,	 -0.00136021366 
	 -0.00414590533 ,	 -0.00106129014 
	 -0.0041346122 ,	 -0.000763617272 
	 -0.00408689774 ,	 -0.000472526751 
	 -0.0040022727 ,	 -0.000193191245 
	 -0.00388083039 ,	 6.89145701e-005 
	 -0.00372357746 ,	 0.00030807323 
	 -0.00353076359 ,	 0.000517172493 
	 -0.00330619467 ,	 0.000691477437 
	 -0.0030536493 ,	 0.000825984377 
	 -0.0027774438 ,	 0.000915829756 
	 -0.00248270081 ,	 0.00095673272 
	 -0.00217084501 ,	 0.000946550595 
END
BEGIN
	 0.965599287,	-0.252565316
	 0.950635346,	-0.303463461
	 0.933060401,	-0.353341595
	 0.912925255,	-0.402113865
	 0.890287588,	-0.449677927
	 0.865210583,	-0.49592551
	 0.837764909,	-0.540743572
	 0.808027507,	-0.584019601
	 0.776080124,	-0.625644113
	 0.742011091,	-0.665509662
	 0.705916686,	-0.703509966
	 0.667894914,	-0.739546959
	 0.628050551,	-0.773525562
	 0.586493402,	-0.805355621
	 0.5433402,	-0.834950934
	 0.498707861,	-0.862234254
	 0.45271889,	-0.887132975
	 0.405499475,	-0.909580726
	 0.357179521,	-0.929517491
	 0.307893074,	-0.946889647
	 0.257774105,	-0.961651469
	 0.206960035,	-0.973763721
	 0.155590076,	-0.983194202
	 0.103805145,	-0.98991806
	 0.0517495459,	-0.993917558
	-0.000434545005,	-0.995183105
	-0.0526041889,	-0.993712011
	-0.104616313,	-0.989509743
	-0.156327762,	-0.982589052
	-0.207596567,	-0.972970156
	-0.25828204,	-0.9606807
	-0.308244653,	-0.945756031
	-0.357347813,	-0.928238486
	-0.405457291,	-0.90817763
	-0.452441765,	-0.885629765
	-0.498173106,	-0.860658313
	-0.542526934,	-0.833332637
	-0.585382589,	-0.803728943
	-0.626623514,	-0.771929484
	-0.666138046,	-0.738022056
	-0.70381852,	-0.702100741
	-0.739563165,	-0.664264188
	-0.773275132,	-0.624616424
	-0.804863132,	-0.583266227
	-0.834241443,	-0.540327153
	-0.861332096,	-0.495917639
END
BEGIN
	 0.965599287,	-0.252565316
	 0.950635346,	-0.303463461
	 0.933060401,	-0.353341595
	 0.912925255,	-0.402113865
	 0.890287588,	-0.449677927
	 0.865210583,	-0.49592551
	 0.837764909,	-0.540743572
	 0.808027507,	-0.584019601
	 0.776080124,	-0.625644113
	 0.742011091,	-0.665509662
	 0.705916686,	-0.703509966
	 0.667894914,	-0.739546959
	 0.628050551,	-0.773525562
	 0.586493402,	-0.805355621
	 0.5433402,	-0.834950934
	 0.498707861,	-0.862234254
	 0.45271889,	-0.887132975
	 0.405499475,	-0.909580726
	 0.357179521,	-0.929517491
	 0.307893074,	-0.946889647
	 0.257774105,	-0.961651469
	 0.206960035,	-0.973763721
	 0.155590076,	-0.983194202
	 0.103805145,	-0.98991806
	 0.0517495459,	-0.993917558
	-0.000434545005,	-0.995183105
	-0.0526041889,	-0.993712011
	-0.104616313,	-0.989509743
	-0.156327762,	-0.982589052
	-0.207596567,	-0.972970156
	-0.25828204,	-0.9606807
	-0.308244653,	-0.945756031
	-0.357347813,	-0.928238486
	-0.405457291,	-0.90817763
	-0.452441765,	-0.885629765
	-0.498173106,	-0.860658313
	-0.542526934,	-0.833332637
	-0.585382589,	-0.803728943
	-0.626623514,	-0.771929484
	-0.666138046,	-0.738022056
	-0.70381852,	-0.702100741
	-0.739563165,	-0.664264188
	-0.773275132,	-0.624616424
	-0.804863132,	-0.583266227
	-0.834241443,	-0.540327153
	-0.861332096,	-0.495917639
END
BEGIN
	 -0.000107784933 ,	 -0.00778404733 
	 -0.000131155004 ,	 -0.00713593716 
	 -0.000154904398 ,	 -0.00663752675 
	 -0.000180370876 ,	 -0.0062417036 
	 -0.00020912227 ,	 -0.0059203634 
	 -0.000243082203 ,	 -0.00565661684 
	 -0.000282864209 ,	 -0.00543684025 
	 -0.000329205576 ,	 -0.00525147544 
	 -0.000384124613 ,	 -0.00509547936 
	 -0.000450369244 ,	 -0.00496516427 
	 -0.00052367059 ,	 -0.00485023664 
	 -0.000608749926 ,	 -0.00475154617 
	 -0.000707993707 ,	 -0.00466671346 
	 -0.000822865672 ,	 -0.00459272257 
	 -0.000944558315 ,	 -0.00452001942 
	 -0.00107974594 ,	 -0.0044508047 
	 -0.00122921593 ,	 -0.00438264312 
	 -0.00139357103 ,	 -0.00431300011 
	 -0.00157142731 ,	 -0.00423854362 
	 -0.0017545661 ,	 -0.00415419106 
	 -0.00194752529 ,	 -0.0040599951 
	 -0.00214899829 ,	 -0.00395379932 
	 -0.0023574165 ,	 -0.00383356021 
	 -0.00257086898 ,	 -0.0036974003 
	 -0.00278263615 ,	 -0.00354275603 
	 -0.00298911476 ,	 -0.00336930757 
	 -0.00318796899 ,	 -0.00317760339 
	 -0.00337923577 ,	 -0.00296614098 
	 -0.00355784302 ,	 -0.00273574193 
	 -0.00372018173 ,	 -0.00248737433 
	 -0.00386250807 ,	 -0.00222270359 
	 -0.00397864143 ,	 -0.00194451753 
	 -0.00406576229 ,	 -0.00165597157 
	 -0.00412246332 ,	 -0.00136016054 
	 -0.00414590533 ,	 -0.00106128634 
	 -0.00413461081 ,	 -0.000763611162 
	 -0.00408690573 ,	 -0.000472535375 
	 -0.00400225772 ,	 -0.000193167394 
	 -0.00388085457 ,	 6.88870032e-005 
	 -0.00372360754 ,	 0.000308042855 
	 -0.00353081395 ,	 0.000517124874 
	 -0.00330625003 ,	 0.000691429814 
	 -0.00305371755 ,	 0.000825931035 
	 -0.00277752904 ,	 0.000915768985 
	 -0.00248278145 ,	 0.000956681064 
	 -0.00217094285 ,	 0.000946493909 
END
BEGIN
	 0.271714662,	 35.6224668
	 0.297937007,	 42.7185569
	 0.322003416,	 49.8130747
	 0.344398565,	 56.9062335
	 0.365461134,	 63.9982387
	 0.385344155,	 71.089659
	 0.404278975,	 78.1803448
	 0.422436749,	 85.2702639
	 0.439826146,	 92.3599864
	 0.456471897,	 99.4500108
	 0.472716911,	 106.538922
	 0.488386505,	 113.627995
	 0.503479602,	 120.717624
	 0.518030138,	 127.808007
	 0.532434331,	 134.89711
	 0.546438022,	 141.986529
	 0.560040676,	 149.07649
	 0.57324178,	 156.167221
	 0.586100649,	 163.258596
	 0.598885309,	 170.349156
	 0.611390952,	 177.440181
	 0.623617312,	 184.5318
	 0.635564128,	 191.624147
	 0.647231151,	 198.717352
	 0.658756279,	 205.810724
	 0.670180887,	 212.904056
	 0.681407451,	 219.997987
	 0.692435829,	 227.092599
	 0.703265883,	 234.187973
	 0.713897481,	 241.28419
	 0.724330493,	 248.381332
	 0.734707156,	 255.47861
	 0.745005604,	 262.576169
	 0.755162378,	 269.674438
	 0.765177401,	 276.773469
	 0.775050596,	 283.873314
	 0.784781887,	 290.974025
	 0.794371203,	 298.075654
	 0.803818472,	 305.178253
	 0.813123624,	 312.281875
	 0.822433708,	 319.385606
	 0.831658514,	 326.490039
	 0.840776507,	 333.595348
	 0.849787639,	 340.70157
	 0.858691865,	 347.808741
	 0.86748914,	 354.916897
END
BEGIN
	 0.271714662,	 35.6224668
	 0.297937007,	 42.7185569
	 0.322003416,	 49.8130747
	 0.344398565,	 56.9062335
	 0.365461134,	 63.9982387
	 0.385344155,	 71.089659
	 0.404278975,	 78.1803448
	 0.422436749,	 85.2702639
	 0.439826146,	 92.3599864
	 0.456471897,	 99.4500108
	 0.472716911,	 106.538922
	 0.488386505,	 113.627995
	 0.503479602,	 120.717624
	 0.518030138,	 127.808007
	 0.532434331,	 134.89711
	 0.546438022,	 141.986529
	 0.560040676,	 149.07649
	 0.57324178,	 156.167221
	 0.586100649,	 163.258596
	 0.598885309,	 170.349156
	 0.611390952,	 177.440181
	 0.623617312,	 184.5318
	 0.635564128,	 191.624147
	 0.647231151,	 198.717352
	 0.658756279,	 205.810724
	 0.670180887,	 212.904056
	 0.681407451,	 219.997987
	 0.692435829,	 227.092599
	 0.703265883,	 234.187973
	 0.713897481,	 241.28419
	 0.724330493,	 248.381332
	 0.734707156,	 255.47861
	 0.745005604,	 262.576169
	 0.755162378,	 269.674438
	 0.765177401,	 276.773469
