CITIFILE A.01.01
#Momentum: B.11.40.482 (*) built: Dec  2 2014 
#Momentum Date and Time: Mon Sep 05 17:22:59 2016

NAME PortSet1/TwoP0_Dsolver_data/first_odd_mode_is_1/most_even_mode_is_1/PMLG4/LS0

CONSTANT NBR_OF_PORTS 2

VAR freq MAG 5

DATA GAMMA_1[1] RI
DATA Z0_1[1,1] RI
DATA LAMBADAI_1[1,1] RI
DATA Zcir_1[1,1] RI
DATA Ycir_1[1,1] RI

VAR_LIST_BEGIN
	 5600000000
	 5656000000
	 5712000000
	 5768000000
	 6000000000
VAR_LIST_END

BEGIN
	 0.6471638905,	 198.7177493
	 0.6504190107,	 200.703788
	 0.6536583616,	 202.6898657
	 0.6568821816,	 204.675983
	 0.6700774227,	 212.9046165
END
BEGIN
	 53.436581248448377 ,	 -0.17399386480791509 
	 53.435754881947972 ,	 -0.17313533208842941 
	 53.434942759120013 ,	 -0.17228944254869752 
	 53.434144599421622 ,	 -0.17145589023989105 
	 53.430980388323157 ,	 -0.16812771984430447 
END
BEGIN
	 0.6471638905,	 198.7177493
	 0.6504190107,	 200.703788
	 0.6536583616,	 202.6898657
	 0.6568821816,	 204.675983
	 0.6700774227,	 212.9046165
END
BEGIN
	 0.1835739861,	 8.010731881e-010
	 0.1844941476,	 8.010563382e-010
	 0.185409851,	 8.010399435e-010
	 0.1863211639,	 8.010239952e-010
	 0.1900512083,	 8.009624822e-010
END
BEGIN
	 0.000865024447668634 ,	 3.98162842202819e-008 
	 0.000885794777430259 ,	 3.98166740517438e-008 
	 0.00090684307082064 ,	 3.98170653692143e-008 
	 0.000928169984873513 ,	 3.98174581512466e-008 
	 0.00101950637722868 ,	 3.98191005389755e-008 
END
CITIFILE A.01.01
NAME PortSet2/TwoP0_Dsolver_data/first_odd_mode_is_1/most_even_mode_is_1/PMLG4/LS0

VAR freq MAG 5

DATA GAMMA_1[1] RI
DATA Z0_1[1,1] RI
DATA LAMBADAI_1[1,1] RI
DATA Zcir_1[1,1] RI
DATA Ycir_1[1,1] RI

VAR_LIST_BEGIN
	 5600000000
	 5656000000
	 5712000000
	 5768000000
	 6000000000
VAR_LIST_END

BEGIN
	 0.6471638905,	 198.7177493
	 0.6504190107,	 200.703788
	 0.6536583616,	 202.6898657
	 0.6568821816,	 204.675983
	 0.6700774227,	 212.9046165
END
BEGIN
	 53.436581248448377 ,	 -0.17399386480791509 
	 53.435754881947972 ,	 -0.17313533208842941 
	 53.434942759120013 ,	 -0.17228944254869752 
	 53.434144599421622 ,	 -0.17145589023989105 
	 53.430980388323157 ,	 -0.16812771984430447 
END
BEGIN
	 0.6471638905,	 198.7177493
	 0.6504190107,	 200.703788
	 0.6536583616,	 202.6898657
	 0.6568821816,	 204.675983
	 0.6700774227,	 212.9046165
END
BEGIN
	 0.1835739861,	 8.010731881e-010
	 0.1844941476,	 8.010563382e-010
	 0.185409851,	 8.010399435e-010
	 0.1863211639,	 8.010239952e-010
	 0.1900512083,	 8.009624822e-010
END
BEGIN
	 0.000865024447668634 ,	 3.98162842202819e-008 
	 0.000885794777430259 ,	 3.98166740517438e-008 
	 0.00090684307082064 ,	 3.98170653692143e-008 
	 0.000928169984873513 ,	 3.98174581512466e-008 
	 0.00101950637722868 ,	 3.98191005389755e-008 
END
