CITIFILE A.01.01
#Momentum: B.11.40.482 (*) built: Dec  2 2014 
#Momentum Date and Time: Mon Sep 05 17:22:59 2016

NAME Momentum.SP

#  mode: MW    project: proj

CONSTANT NBR_OF_PORTS 2

CONSTANT NORMALIZATION 1

VAR freq MAG 3

DATA S[1,1] RI
DATA S[1,2] RI
DATA S[2,1] RI
DATA S[2,2] RI
DATA S_50[1,1] RI
DATA S_50[1,2] RI
DATA S_50[2,1] RI
DATA S_50[2,2] RI
DATA S_Z0[1,1] RI
DATA S_Z0[1,2] RI
DATA S_Z0[2,1] RI
DATA S_Z0[2,2] RI
DATA GAMMA[1] RI
DATA GAMMA[2] RI
DATA Z0[1] RI
DATA Z0[2] RI
DATA PORTZ[1] RI
DATA PORTZ[2] RI

VAR_LIST_BEGIN
	 5600000000
	 5800000000
	 6000000000
VAR_LIST_END

BEGIN
	 0.0621643886,	 0.0029711455
	 0.0621721775,	-0.00024434373
	 0.0618368473,	-0.00344447281
END
BEGIN
	 0.101861001,	-0.988183776
	 0.0502173824,	-0.992084267
	-0.00154434162,	-0.993300006
END
BEGIN
	 0.101861001,	-0.988183776
	 0.0502173824,	-0.992084267
	-0.00154434162,	-0.993300006
END
BEGIN
	 0.0621643818,	 0.00297121153
	 0.062172174,	-0.000244272479
	 0.0618368472,	-0.00344440502
END
BEGIN
	 0.0621643886,	 0.0029711455
	 0.0621721775,	-0.00024434373
	 0.0618368473,	-0.00344447281
END
BEGIN
	 0.101861001,	-0.988183776
	 0.0502173824,	-0.992084267
	-0.00154434162,	-0.993300006
END
BEGIN
	 0.101861001,	-0.988183776
	 0.0502173824,	-0.992084267
	-0.00154434162,	-0.993300006
END
BEGIN
	 0.0621643818,	 0.00297121153
	 0.062172174,	-0.000244272479
	 0.0618368472,	-0.00344440502
END
BEGIN
	 -0.00354969447 ,	 -0.00379877056 
	 -0.00383941753 ,	 -0.00359740862 
	 -0.00412382879 ,	 -0.00336956664 
END
BEGIN
	 0.105268853,	-0.989774543
	 0.0533813666,	-0.993843083
	 0.00137288986,	-0.995194903
END
BEGIN
	 0.105268853,	-0.989774543
	 0.0533813666,	-0.993843083
	 0.00137288986,	-0.995194903
END
BEGIN
	 -0.0035497015 ,	 -0.00379870443 
	 -0.00383942126 ,	 -0.00359733724 
	 -0.00412382909 ,	 -0.00336949872 
END
BEGIN
	 0.647163891,	 198.717749
	 0.658717598,	 205.810925
	 0.670077423,	 212.904617
END
BEGIN
	 0.647163891,	 198.717749
	 0.658717598,	 205.810925
	 0.670077423,	 212.904617
END
BEGIN
	 53.436581250000003 ,	 -0.17399386489999999 
	 53.433694510000002 ,	 -0.17098503000000001 
	 53.430980390000002 ,	 -0.16812771979999999 
END
BEGIN
	 53.436581250000003 ,	 -0.17399386489999999 
	 53.433694510000002 ,	 -0.17098503000000001 
	 53.430980390000002 ,	 -0.16812771979999999 
END
BEGIN
	 50 ,	 0 
	 50 ,	 0 
	 50 ,	 0 
END
BEGIN
	 50 ,	 0 
	 50 ,	 0 
	 50 ,	 0 
END
